T3824 000:004.517   SEGGER J-Link V8.10f Log File
T3824 000:004.634   DLL Compiled: Nov  6 2024 16:02:06
T3824 000:004.643   Logging started @ 2024-11-25 01:07
T3824 000:004.651   Process: C:\Keil_v5\UV4\UV4.EXE
T3824 000:004.664 - 4.660ms 
T3824 000:004.675 JLINK_SetWarnOutHandler(...)
T3824 000:004.684 - 0.009ms 
T3824 000:004.693 JLINK_OpenEx(...)
T3824 000:008.052   Firmware: J-Link V9 compiled May  7 2021 16:26:12
T3824 000:009.373   Firmware: J-Link V9 compiled May  7 2021 16:26:12
T3824 000:009.525   Decompressing FW timestamp took 129 us
T3824 000:017.554   Hardware: V9.20
T3824 000:017.573   S/N: 59800876
T3824 000:017.584   OEM: SEGGER
T3824 000:017.596   Feature(s): RDI, GDB, FlashDL, FlashBP, JFlash
T3824 000:018.730   Bootloader: (FW returned invalid version)
T3824 000:020.289   TELNET listener socket opened on port 19021
T3824 000:020.424   WEBSRV WEBSRV_Init(): Starting webserver thread(s)
T3824 000:020.517   WEBSRV Webserver running on local port 19080
T3824 000:020.635   Looking for J-Link GUI Server exe at: C:\Keil_v5\ARM\Segger\JLinkGUIServer.exe
T3824 000:020.715   Looking for J-Link GUI Server exe at: D:\JLINK\JLink_V810f\JLinkGUIServer.exe
T3824 000:020.733   Forking J-Link GUI Server: D:\JLINK\JLink_V810f\JLinkGUIServer.exe
T3824 000:040.780   J-Link GUI Server info: "J-Link GUI server V8.10f "
T3824 000:044.104 - 39.407ms returns "O.K."
T3824 000:044.125 JLINK_GetEmuCaps()
T3824 000:044.136 - 0.009ms returns 0xB9FF7BBF
T3824 000:044.146 JLINK_TIF_GetAvailable(...)
T3824 000:044.421 - 0.274ms 
T3824 000:044.434 JLINK_SetErrorOutHandler(...)
T3824 000:044.442 - 0.008ms 
T3824 000:044.463 JLINK_ExecCommand("ProjectFile = "C:\Users\Administrator\Desktop\“»µ∫Àÿ±√\FR801xH-SDK-master\examples\dev1.0\ble_simple_peripheral\keil\JLinkSettings.ini"", ...). 
T3824 000:055.075   Ref file found at: C:\Keil_v5\ARM\Segger\JLinkDevices.ref
T3824 000:055.161   REF file references invalid XML file: D:\JLINK\JLink_V810f\JLinkDevices.xml
T3824 000:055.970 - 11.508ms returns 0x00
T3824 000:058.934 JLINK_ExecCommand("Device = Cortex-M3", ...). 
T3824 000:061.950   Device "CORTEX-M3" selected.
T3824 000:062.309 - 3.354ms returns 0x00
T3824 000:062.327 JLINK_ExecCommand("DisableConnectionTimeout", ...). 
T3824 000:062.343   ERROR: Unknown command
T3824 000:062.356 - 0.018ms returns 0x01
T3824 000:062.366 JLINK_GetHardwareVersion()
T3824 000:062.374 - 0.008ms returns 92000
T3824 000:062.385 JLINK_GetDLLVersion()
T3824 000:062.394 - 0.008ms returns 81006
T3824 000:062.405 JLINK_GetOEMString(...)
T3824 000:062.415 JLINK_GetFirmwareString(...)
T3824 000:062.437 - 0.022ms 
T3824 000:069.513 JLINK_GetDLLVersion()
T3824 000:069.540 - 0.026ms returns 81006
T3824 000:069.549 JLINK_GetCompileDateTime()
T3824 000:069.558 - 0.008ms 
T3824 000:072.050 JLINK_GetFirmwareString(...)
T3824 000:072.076 - 0.026ms 
T3824 000:074.400 JLINK_GetHardwareVersion()
T3824 000:074.419 - 0.018ms returns 92000
T3824 000:076.690 JLINK_GetSN()
T3824 000:076.706 - 0.016ms returns 59800876
T3824 000:080.430 JLINK_GetOEMString(...)
T3824 000:084.687 JLINK_TIF_Select(JLINKARM_TIF_SWD)
T3824 000:086.029 - 1.342ms returns 0x00
T3824 000:086.043 JLINK_HasError()
T3824 000:086.057 JLINK_SetSpeed(2000)
T3824 000:086.230 - 0.173ms 
T3824 000:086.249 JLINK_GetId()
T3824 000:089.520   Found SW-DP with ID 0x2BA01477
T3824 000:095.239   DPIDR: 0x2BA01477
T3824 000:097.109   CoreSight SoC-400 or earlier
T3824 000:099.102   Scanning AP map to find all available APs
T3824 000:101.882   AP[1]: Stopped AP scan as end of AP map has been reached
T3824 000:103.801   AP[0]: AHB-AP (IDR: 0x24770011, ADDR: 0x00000000)
T3824 000:106.049   Iterating through AP map to find AHB-AP to use
T3824 000:109.807   AP[0]: Core found
T3824 000:111.753   AP[0]: AHB-AP ROM base: 0xE00FF000
T3824 000:114.428   CPUID register: 0x412FC231. Implementer code: 0x41 (ARM)
T3824 000:116.388   Found Cortex-M3 r2p1, Little endian.
T3824 000:117.228   -- Max. mem block: 0x00010C20
T3824 000:118.068   CPU_ReadMem(4 bytes @ 0xE000EDF0)
T3824 000:118.617   CPU_WriteMem(4 bytes @ 0xE000EDF0)
T3824 000:119.146   CPU_ReadMem(4 bytes @ 0xE0002000)
T3824 000:122.066   FPUnit: 14 code (BP) slots and 2 literal slots
T3824 000:122.094   CPU_ReadMem(4 bytes @ 0xE000EDFC)
T3824 000:122.576   CPU_WriteMem(4 bytes @ 0xE000EDFC)
T3824 000:123.144   CPU_ReadMem(4 bytes @ 0xE0001000)
T3824 000:123.753   CPU_WriteMem(4 bytes @ 0xE0001000)
T3824 000:124.299   CPU_ReadMem(4 bytes @ 0xE000ED88)
T3824 000:124.868   CPU_WriteMem(4 bytes @ 0xE000ED88)
T3824 000:125.390   CPU_ReadMem(4 bytes @ 0xE000ED88)
T3824 000:126.005   CPU_WriteMem(4 bytes @ 0xE000ED88)
T3824 000:128.534   CoreSight components:
T3824 000:130.508   ROMTbl[0] @ E00FF000
T3824 000:130.529   CPU_ReadMem(64 bytes @ 0xE00FF000)
T3824 000:131.537   CPU_ReadMem(32 bytes @ 0xE000EFE0)
T3824 000:134.389   [0][0]: E000E000 CID B105E00D PID 000BB000 SCS
T3824 000:134.410   CPU_ReadMem(32 bytes @ 0xE0001FE0)
T3824 000:137.584   [0][1]: E0001000 CID B105E00D PID 003BB002 DWT
T3824 000:137.609   CPU_ReadMem(32 bytes @ 0xE0002FE0)
T3824 000:141.349   [0][2]: E0002000 CID B105E00D PID 002BB003 FPB
T3824 000:141.375   CPU_ReadMem(32 bytes @ 0xE0000FE0)
T3824 000:144.239   [0][3]: E0000000 CID B105E00D PID 003BB001 ITM
T3824 000:144.261   CPU_ReadMem(32 bytes @ 0xE0040FE0)
T3824 000:147.065   [0][4]: E0040000 CID B105900D PID 003BB923 TPIU-Lite
T3824 000:147.515 - 61.266ms returns 0x2BA01477
T3824 000:147.562 JLINK_GetDLLVersion()
T3824 000:147.572 - 0.010ms returns 81006
T3824 000:147.582 JLINK_CORE_GetFound()
T3824 000:147.590 - 0.007ms returns 0x30000FF
T3824 000:147.599 JLINK_GetDebugInfo(0x100 = JLINKARM_ROM_TABLE_ADDR_INDEX)
T3824 000:147.607   Value=0xE00FF000
T3824 000:147.620 - 0.021ms returns 0
T3824 000:149.566 JLINK_GetDebugInfo(0x100 = JLINKARM_ROM_TABLE_ADDR_INDEX)
T3824 000:149.581   Value=0xE00FF000
T3824 000:149.592 - 0.027ms returns 0
T3824 000:149.601 JLINK_GetDebugInfo(0x101 = JLINKARM_DEBUG_INFO_ETM_ADDR_INDEX)
T3824 000:149.610   Value=0x00000000
T3824 000:149.621 - 0.020ms returns 0
T3824 000:149.634 JLINK_ReadMemEx(0xE0041FF0, 0x10 Bytes, Flags = 0x02000004)
T3824 000:149.654   CPU_ReadMem(16 bytes @ 0xE0041FF0)
T3824 000:150.308   Data:  00 00 00 00 00 00 00 00 00 00 00 00 00 00 00 00
T3824 000:150.323 - 0.688ms returns 16 (0x10)
T3824 000:150.333 JLINK_GetDebugInfo(0x102 = JLINKARM_DEBUG_INFO_MTB_ADDR_INDEX)
T3824 000:150.341   Value=0x00000000
T3824 000:150.353 - 0.020ms returns 0
T3824 000:150.362 JLINK_GetDebugInfo(0x103 = JLINKARM_DEBUG_INFO_TPIU_ADDR_INDEX)
T3824 000:150.369   Value=0xE0040000
T3824 000:150.381 - 0.019ms returns 0
T3824 000:150.390 JLINK_GetDebugInfo(0x104 = JLINKARM_DEBUG_INFO_ITM_ADDR_INDEX)
T3824 000:150.397   Value=0xE0000000
T3824 000:150.409 - 0.019ms returns 0
T3824 000:150.418 JLINK_GetDebugInfo(0x105 = JLINKARM_DEBUG_INFO_DWT_ADDR_INDEX)
T3824 000:150.426   Value=0xE0001000
T3824 000:150.438 - 0.019ms returns 0
T3824 000:150.446 JLINK_GetDebugInfo(0x106 = JLINKARM_DEBUG_INFO_FPB_ADDR_INDEX)
T3824 000:150.454   Value=0xE0002000
T3824 000:150.466 - 0.019ms returns 0
T3824 000:150.474 JLINK_GetDebugInfo(0x107 = JLINKARM_DEBUG_INFO_NVIC_ADDR_INDEX)
T3824 000:150.482   Value=0xE000E000
T3824 000:150.494 - 0.019ms returns 0
T3824 000:150.502 JLINK_GetDebugInfo(0x10C = JLINKARM_DEBUG_INFO_DBG_ADDR_INDEX)
T3824 000:150.511   Value=0xE000EDF0
T3824 000:150.523 - 0.020ms returns 0
T3824 000:150.532 JLINK_GetDebugInfo(0x01 = Unknown)
T3824 000:150.540   Value=0x00000000
T3824 000:150.551 - 0.019ms returns 0
T3824 000:150.561 JLINK_ReadMemU32(0xE000ED00, 0x1 Items)
T3824 000:150.571   CPU_ReadMem(4 bytes @ 0xE000ED00)
T3824 000:151.117   Data:  31 C2 2F 41
T3824 000:151.133   Debug reg: CPUID
T3824 000:151.145 - 0.584ms returns 1 (0x1)
T3824 000:151.155 JLINK_GetDebugInfo(0x10F = JLINKARM_DEBUG_INFO_HAS_CORTEX_M_SECURITY_EXT_INDEX)
T3824 000:151.163   Value=0x00000000
T3824 000:151.175 - 0.020ms returns 0
T3824 000:151.184 JLINK_HasError()
T3824 000:151.193 JLINK_SetResetType(JLINKARM_CM3_RESET_TYPE_NORMAL)
T3824 000:151.205 - 0.012ms returns JLINKARM_CM3_RESET_TYPE_NORMAL
T3824 000:151.216 JLINK_Reset()
T3824 000:151.227   JLINK_GetResetTypeDesc
T3824 000:151.236   - 0.008ms 
T3824 000:153.183   Reset type: NORMAL (https://wiki.segger.com/J-Link_Reset_Strategies)
T3824 000:153.202   CPU is running
T3824 000:153.215   CPU_WriteMem(4 bytes @ 0xE000EDF0)
T3824 000:153.873   CPU is running
T3824 000:153.894   CPU_WriteMem(4 bytes @ 0xE000EDFC)
T3824 000:157.600   Reset: Halt core after reset via DEMCR.VC_CORERESET.
T3824 000:160.424   Reset: Reset device via AIRCR.SYSRESETREQ.
T3824 000:160.447   CPU is running
T3824 000:160.461   CPU_WriteMem(4 bytes @ 0xE000ED0C)
T3824 000:215.219   CPU_ReadMem(4 bytes @ 0xE000EDF0)
T3824 000:215.902   CPU_ReadMem(4 bytes @ 0xE000EDF0)
T3824 000:220.324   CPU_WriteMem(4 bytes @ 0xE000EDFC)
T3824 000:226.189   CPU_ReadMem(4 bytes @ 0xE000EDF0)
T3824 000:230.664   CPU_WriteMem(4 bytes @ 0xE0002000)
T3824 000:231.369   CPU_ReadMem(4 bytes @ 0xE000EDFC)
T3824 000:231.923   CPU_ReadMem(4 bytes @ 0xE0001000)
T3824 000:232.516 - 81.299ms 
T3824 000:232.538 JLINK_Halt()
T3824 000:232.547 - 0.008ms returns 0x00
T3824 000:232.557 JLINK_ReadMemU32(0xE000EDF0, 0x1 Items)
T3824 000:232.569   CPU_ReadMem(4 bytes @ 0xE000EDF0)
T3824 000:233.217   Data:  03 00 03 00
T3824 000:233.236   Debug reg: DHCSR
T3824 000:233.248 - 0.690ms returns 1 (0x1)
T3824 000:233.265 JLINK_WriteU32(0xE000EDF0, 0xA05F0003)
T3824 000:233.274   Debug reg: DHCSR
T3824 000:233.471   CPU_WriteMem(4 bytes @ 0xE000EDF0)
T3824 000:234.148 - 0.884ms returns 0 (0x00000000)
T3824 000:234.167 JLINK_WriteU32(0xE000EDFC, 0x01000000)
T3824 000:234.179   Debug reg: DEMCR
T3824 000:234.199   CPU_WriteMem(4 bytes @ 0xE000EDFC)
T3824 000:234.842 - 0.674ms returns 0 (0x00000000)
T3824 000:243.228 JLINK_GetHWStatus(...)
T3824 000:243.631 - 0.402ms returns 0
T3824 000:249.242 JLINK_GetNumBPUnits(Type = 0xFFFFFF00)
T3824 000:249.261 - 0.018ms returns 0x0E
T3824 000:249.270 JLINK_GetNumBPUnits(Type = 0xF0)
T3824 000:249.278 - 0.008ms returns 0x2000
T3824 000:249.286 JLINK_GetNumWPUnits()
T3824 000:249.295 - 0.008ms returns 4
T3824 000:256.029 JLINK_GetSpeed()
T3824 000:256.056 - 0.026ms returns 2000
T3824 000:259.791 JLINK_ReadMemU32(0xE000E004, 0x1 Items)
T3824 000:259.820   CPU_ReadMem(4 bytes @ 0xE000E004)
T3824 000:260.391   Data:  00 00 00 00
T3824 000:260.411 - 0.619ms returns 1 (0x1)
T3824 000:260.423 JLINK_ReadMemU32(0xE000E004, 0x1 Items)
T3824 000:260.434   CPU_ReadMem(4 bytes @ 0xE000E004)
T3824 000:261.146   Data:  00 00 00 00
T3824 000:261.162 - 0.739ms returns 1 (0x1)
T3824 000:261.173 JLINK_WriteMemEx(0xE0001000, 0x0000001C Bytes, Flags = 0x02000004)
T3824 000:261.182   Data:  01 00 00 00 00 00 00 00 00 00 00 00 00 00 00 00 ...
T3824 000:261.198   CPU_WriteMem(28 bytes @ 0xE0001000)
T3824 000:262.070 - 0.897ms returns 0x1C
T3824 000:262.086 JLINK_Halt()
T3824 000:262.096 - 0.009ms returns 0x00
T3824 000:262.105 JLINK_IsHalted()
T3824 000:262.113 - 0.008ms returns TRUE
T3824 000:264.495 JLINK_WriteMem(0x20000000, 0xEA4 Bytes, ...)
T3824 000:264.507   Data:  00 BE 0A E0 0D 78 2D 06 68 40 08 24 40 00 00 D3 ...
T3824 000:264.699   CPU_WriteMem(3748 bytes @ 0x20000000)
T3824 000:289.536 - 25.041ms returns 0xEA4
T3824 000:289.587 JLINK_HasError()
T3824 000:289.600 JLINK_WriteReg(R0, 0x01000000)
T3824 000:289.611 - 0.011ms returns 0
T3824 000:289.620 JLINK_WriteReg(R1, 0x00B71B00)
T3824 000:289.629 - 0.009ms returns 0
T3824 000:289.639 JLINK_WriteReg(R2, 0x00000001)
T3824 000:289.647 - 0.008ms returns 0
T3824 000:289.656 JLINK_WriteReg(R3, 0x00000000)
T3824 000:289.664 - 0.008ms returns 0
T3824 000:289.672 JLINK_WriteReg(R4, 0x00000000)
T3824 000:289.681 - 0.008ms returns 0
T3824 000:289.689 JLINK_WriteReg(R5, 0x00000000)
T3824 000:289.698 - 0.008ms returns 0
T3824 000:289.706 JLINK_WriteReg(R6, 0x00000000)
T3824 000:289.715 - 0.008ms returns 0
T3824 000:289.723 JLINK_WriteReg(R7, 0x00000000)
T3824 000:289.731 - 0.008ms returns 0
T3824 000:289.745 JLINK_WriteReg(R8, 0x00000000)
T3824 000:289.758 - 0.017ms returns 0
T3824 000:289.769 JLINK_WriteReg(R9, 0x20000E98)
T3824 000:289.777 - 0.008ms returns 0
T3824 000:289.786 JLINK_WriteReg(R10, 0x00000000)
T3824 000:289.794 - 0.008ms returns 0
T3824 000:289.803 JLINK_WriteReg(R11, 0x00000000)
T3824 000:289.811 - 0.007ms returns 0
T3824 000:289.820 JLINK_WriteReg(R12, 0x00000000)
T3824 000:289.828 - 0.008ms returns 0
T3824 000:289.837 JLINK_WriteReg(R13 (SP), 0x20008000)
T3824 000:289.846 - 0.009ms returns 0
T3824 000:289.854 JLINK_WriteReg(R14, 0x20000001)
T3824 000:289.863 - 0.008ms returns 0
T3824 000:289.873 JLINK_WriteReg(R15 (PC), 0x20000038)
T3824 000:289.882 - 0.010ms returns 0
T3824 000:289.891 JLINK_WriteReg(XPSR, 0x01000000)
T3824 000:289.899 - 0.008ms returns 0
T3824 000:289.908 JLINK_WriteReg(MSP, 0x20008000)
T3824 000:289.916 - 0.008ms returns 0
T3824 000:289.925 JLINK_WriteReg(PSP, 0x20008000)
T3824 000:289.933 - 0.008ms returns 0
T3824 000:289.942 JLINK_WriteReg(CFBP, 0x00000000)
T3824 000:289.950 - 0.008ms returns 0
T3824 000:289.959 JLINK_SetBPEx(Addr = 0x20000000, Type = 0xFFFFFFF2)
T3824 000:289.973   CPU_ReadMem(4 bytes @ 0x20000000)
T3824 000:290.507   CPU_WriteMem(4 bytes @ 0x20000000)
T3824 000:291.095   CPU_ReadMem(4 bytes @ 0x20000000)
T3824 000:291.634   CPU_WriteMem(4 bytes @ 0x20000000)
T3824 000:292.220   CPU_ReadMem(2 bytes @ 0x20000000)
T3824 000:292.782 - 2.822ms returns 0x00000001
T3824 000:292.794 JLINK_Go()
T3824 000:292.807   CPU_WriteMem(2 bytes @ 0x20000000)
T3824 000:293.340   CPU_WriteMem(4 bytes @ 0xE0002028)
T3824 000:294.049   CPU_WriteMem(4 bytes @ 0xE000202C)
T3824 000:294.772   CPU_WriteMem(4 bytes @ 0xE0002030)
T3824 000:295.236   CPU_WriteMem(4 bytes @ 0xE0002034)
T3824 000:295.766   CPU_WriteMem(4 bytes @ 0xE0002038)
T3824 000:296.322   CPU_WriteMem(4 bytes @ 0xE000203C)
T3824 000:296.895   CPU_ReadMem(4 bytes @ 0xE0001000)
T3824 000:297.473   CPU_WriteMem(4 bytes @ 0xE0002008)
T3824 000:297.488   CPU_WriteMem(4 bytes @ 0xE000200C)
T3824 000:297.500   CPU_WriteMem(4 bytes @ 0xE0002010)
T3824 000:297.512   CPU_WriteMem(4 bytes @ 0xE0002014)
T3824 000:297.524   CPU_WriteMem(4 bytes @ 0xE0002018)
T3824 000:297.535   CPU_WriteMem(4 bytes @ 0xE000201C)
T3824 000:297.547   CPU_WriteMem(4 bytes @ 0xE0002020)
T3824 000:297.559   CPU_WriteMem(4 bytes @ 0xE0002024)
T3824 000:299.705   CPU_WriteMem(4 bytes @ 0xE0001004)
T3824 000:305.970   Memory map 'after startup completion point' is active
T3824 000:305.995 - 13.201ms 
T3824 000:306.006 JLINK_IsHalted()
T3824 000:306.537 - 0.531ms returns FALSE
T3824 000:306.550 JLINK_HasError()
T3824 000:320.939 JLINK_IsHalted()
T3824 000:324.741   CPU_ReadMem(2 bytes @ 0x20000000)
T3824 000:325.252 - 4.312ms returns TRUE
T3824 000:325.271 JLINK_ReadReg(R15 (PC))
T3824 000:325.281 - 0.010ms returns 0x20000000
T3824 000:325.291 JLINK_ClrBPEx(BPHandle = 0x00000001)
T3824 000:325.300 - 0.008ms returns 0x00
T3824 000:325.308 JLINK_ReadReg(R0)
T3824 000:325.317 - 0.008ms returns 0x00000000
T3824 000:325.556 JLINK_HasError()
T3824 000:325.571 JLINK_WriteReg(R0, 0x01000000)
T3824 000:325.580 - 0.009ms returns 0
T3824 000:325.589 JLINK_WriteReg(R1, 0x00001000)
T3824 000:325.598 - 0.008ms returns 0
T3824 000:325.606 JLINK_WriteReg(R2, 0x000000FF)
T3824 000:325.615 - 0.008ms returns 0
T3824 000:325.623 JLINK_WriteReg(R3, 0x00000000)
T3824 000:325.631 - 0.007ms returns 0
T3824 000:325.640 JLINK_WriteReg(R4, 0x00000000)
T3824 000:325.648 - 0.008ms returns 0
T3824 000:325.657 JLINK_WriteReg(R5, 0x00000000)
T3824 000:325.665 - 0.008ms returns 0
T3824 000:325.674 JLINK_WriteReg(R6, 0x00000000)
T3824 000:325.682 - 0.008ms returns 0
T3824 000:325.691 JLINK_WriteReg(R7, 0x00000000)
T3824 000:325.699 - 0.007ms returns 0
T3824 000:325.708 JLINK_WriteReg(R8, 0x00000000)
T3824 000:325.716 - 0.008ms returns 0
T3824 000:325.724 JLINK_WriteReg(R9, 0x20000E98)
T3824 000:325.733 - 0.008ms returns 0
T3824 000:325.742 JLINK_WriteReg(R10, 0x00000000)
T3824 000:325.750 - 0.008ms returns 0
T3824 000:325.758 JLINK_WriteReg(R11, 0x00000000)
T3824 000:325.816 - 0.057ms returns 0
T3824 000:325.826 JLINK_WriteReg(R12, 0x00000000)
T3824 000:325.834 - 0.008ms returns 0
T3824 000:325.843 JLINK_WriteReg(R13 (SP), 0x20008000)
T3824 000:325.852 - 0.009ms returns 0
T3824 000:325.860 JLINK_WriteReg(R14, 0x20000001)
T3824 000:325.869 - 0.008ms returns 0
T3824 000:325.877 JLINK_WriteReg(R15 (PC), 0x20000020)
T3824 000:325.885 - 0.008ms returns 0
T3824 000:325.895 JLINK_WriteReg(XPSR, 0x01000000)
T3824 000:325.903 - 0.008ms returns 0
T3824 000:325.912 JLINK_WriteReg(MSP, 0x20008000)
T3824 000:325.922 - 0.010ms returns 0
T3824 000:325.931 JLINK_WriteReg(PSP, 0x20008000)
T3824 000:325.939 - 0.008ms returns 0
T3824 000:325.948 JLINK_WriteReg(CFBP, 0x00000000)
T3824 000:325.956 - 0.008ms returns 0
T3824 000:325.966 JLINK_SetBPEx(Addr = 0x20000000, Type = 0xFFFFFFF2)
T3824 000:325.975 - 0.009ms returns 0x00000002
T3824 000:325.984 JLINK_Go()
T3824 000:325.997   CPU_WriteMem(4 bytes @ 0xE0002028)
T3824 000:326.576   CPU_WriteMem(4 bytes @ 0xE000202C)
T3824 000:327.136   CPU_WriteMem(4 bytes @ 0xE0002030)
T3824 000:327.752   CPU_WriteMem(4 bytes @ 0xE0002034)
T3824 000:328.274   CPU_WriteMem(4 bytes @ 0xE0002038)
T3824 000:328.801   CPU_WriteMem(4 bytes @ 0xE000203C)
T3824 000:329.456   CPU_ReadMem(4 bytes @ 0xE0001000)
T3824 000:333.554 - 7.567ms 
T3824 000:333.598 JLINK_IsHalted()
T3824 000:337.431   CPU_ReadMem(2 bytes @ 0x20000000)
T3824 000:338.003 - 4.403ms returns TRUE
T3824 000:338.022 JLINK_ReadReg(R15 (PC))
T3824 000:338.033 - 0.011ms returns 0x20000000
T3824 000:338.043 JLINK_ClrBPEx(BPHandle = 0x00000002)
T3824 000:338.051 - 0.008ms returns 0x00
T3824 000:338.060 JLINK_ReadReg(R0)
T3824 000:338.069 - 0.008ms returns 0x00000001
T3824 000:338.079 JLINK_HasError()
T3824 000:338.088 JLINK_WriteReg(R0, 0x01000000)
T3824 000:338.097 - 0.008ms returns 0
T3824 000:338.105 JLINK_WriteReg(R1, 0x00001000)
T3824 000:338.114 - 0.008ms returns 0
T3824 000:338.122 JLINK_WriteReg(R2, 0x000000FF)
T3824 000:338.131 - 0.008ms returns 0
T3824 000:338.139 JLINK_WriteReg(R3, 0x00000000)
T3824 000:338.147 - 0.007ms returns 0
T3824 000:338.156 JLINK_WriteReg(R4, 0x00000000)
T3824 000:338.164 - 0.008ms returns 0
T3824 000:338.172 JLINK_WriteReg(R5, 0x00000000)
T3824 000:338.181 - 0.008ms returns 0
T3824 000:338.190 JLINK_WriteReg(R6, 0x00000000)
T3824 000:338.198 - 0.008ms returns 0
T3824 000:338.206 JLINK_WriteReg(R7, 0x00000000)
T3824 000:338.214 - 0.007ms returns 0
T3824 000:338.223 JLINK_WriteReg(R8, 0x00000000)
T3824 000:338.231 - 0.008ms returns 0
T3824 000:338.239 JLINK_WriteReg(R9, 0x20000E98)
T3824 000:338.248 - 0.008ms returns 0
T3824 000:338.257 JLINK_WriteReg(R10, 0x00000000)
T3824 000:338.265 - 0.008ms returns 0
T3824 000:338.274 JLINK_WriteReg(R11, 0x00000000)
T3824 000:338.281 - 0.007ms returns 0
T3824 000:338.290 JLINK_WriteReg(R12, 0x00000000)
T3824 000:338.299 - 0.008ms returns 0
T3824 000:338.307 JLINK_WriteReg(R13 (SP), 0x20008000)
T3824 000:338.316 - 0.008ms returns 0
T3824 000:338.324 JLINK_WriteReg(R14, 0x20000001)
T3824 000:338.333 - 0.008ms returns 0
T3824 000:338.341 JLINK_WriteReg(R15 (PC), 0x20000094)
T3824 000:338.349 - 0.007ms returns 0
T3824 000:338.358 JLINK_WriteReg(XPSR, 0x01000000)
T3824 000:338.366 - 0.008ms returns 0
T3824 000:338.375 JLINK_WriteReg(MSP, 0x20008000)
T3824 000:338.383 - 0.008ms returns 0
T3824 000:338.392 JLINK_WriteReg(PSP, 0x20008000)
T3824 000:338.401 - 0.008ms returns 0
T3824 000:338.409 JLINK_WriteReg(CFBP, 0x00000000)
T3824 000:338.417 - 0.007ms returns 0
T3824 000:338.426 JLINK_SetBPEx(Addr = 0x20000000, Type = 0xFFFFFFF2)
T3824 000:338.435 - 0.009ms returns 0x00000003
T3824 000:338.444 JLINK_Go()
T3824 000:338.457   CPU_WriteMem(4 bytes @ 0xE0002028)
T3824 000:339.054   CPU_WriteMem(4 bytes @ 0xE000202C)
T3824 000:339.584   CPU_WriteMem(4 bytes @ 0xE0002030)
T3824 000:340.227   CPU_WriteMem(4 bytes @ 0xE0002034)
T3824 000:340.732   CPU_WriteMem(4 bytes @ 0xE0002038)
T3824 000:341.337   CPU_WriteMem(4 bytes @ 0xE000203C)
T3824 000:341.848   CPU_ReadMem(4 bytes @ 0xE0001000)
T3824 000:346.031 - 7.587ms 
T3824 000:346.048 JLINK_IsHalted()
T3824 000:346.596 - 0.548ms returns FALSE
T3824 000:346.609 JLINK_HasError()
T3824 000:350.888 JLINK_IsHalted()
T3824 000:351.496 - 0.609ms returns FALSE
T3824 000:351.508 JLINK_HasError()
T3824 000:352.873 JLINK_IsHalted()
T3824 000:353.476 - 0.603ms returns FALSE
T3824 000:353.491 JLINK_HasError()
T3824 000:354.847 JLINK_IsHalted()
T3824 000:358.677   CPU_ReadMem(2 bytes @ 0x20000000)
T3824 000:359.278 - 4.431ms returns TRUE
T3824 000:359.295 JLINK_ReadReg(R15 (PC))
T3824 000:359.305 - 0.010ms returns 0x20000000
T3824 000:359.315 JLINK_ClrBPEx(BPHandle = 0x00000003)
T3824 000:359.324 - 0.008ms returns 0x00
T3824 000:359.332 JLINK_ReadReg(R0)
T3824 000:359.341 - 0.008ms returns 0x00000000
T3824 000:359.729 JLINK_HasError()
T3824 000:359.744 JLINK_WriteReg(R0, 0x01001000)
T3824 000:359.754 - 0.009ms returns 0
T3824 000:359.763 JLINK_WriteReg(R1, 0x00001000)
T3824 000:359.771 - 0.008ms returns 0
T3824 000:359.780 JLINK_WriteReg(R2, 0x000000FF)
T3824 000:359.788 - 0.008ms returns 0
T3824 000:359.797 JLINK_WriteReg(R3, 0x00000000)
T3824 000:359.805 - 0.008ms returns 0
T3824 000:359.813 JLINK_WriteReg(R4, 0x00000000)
T3824 000:359.822 - 0.008ms returns 0
T3824 000:359.832 JLINK_WriteReg(R5, 0x00000000)
T3824 000:359.840 - 0.008ms returns 0
T3824 000:359.849 JLINK_WriteReg(R6, 0x00000000)
T3824 000:359.857 - 0.008ms returns 0
T3824 000:359.866 JLINK_WriteReg(R7, 0x00000000)
T3824 000:359.873 - 0.007ms returns 0
T3824 000:359.882 JLINK_WriteReg(R8, 0x00000000)
T3824 000:359.891 - 0.008ms returns 0
T3824 000:359.899 JLINK_WriteReg(R9, 0x20000E98)
T3824 000:359.908 - 0.008ms returns 0
T3824 000:359.916 JLINK_WriteReg(R10, 0x00000000)
T3824 000:359.924 - 0.008ms returns 0
T3824 000:359.933 JLINK_WriteReg(R11, 0x00000000)
T3824 000:359.941 - 0.008ms returns 0
T3824 000:359.950 JLINK_WriteReg(R12, 0x00000000)
T3824 000:359.958 - 0.008ms returns 0
T3824 000:359.967 JLINK_WriteReg(R13 (SP), 0x20008000)
T3824 000:359.976 - 0.009ms returns 0
T3824 000:359.984 JLINK_WriteReg(R14, 0x20000001)
T3824 000:359.993 - 0.008ms returns 0
T3824 000:360.002 JLINK_WriteReg(R15 (PC), 0x20000020)
T3824 000:360.010 - 0.008ms returns 0
T3824 000:360.018 JLINK_WriteReg(XPSR, 0x01000000)
T3824 000:360.027 - 0.008ms returns 0
T3824 000:360.036 JLINK_WriteReg(MSP, 0x20008000)
T3824 000:360.044 - 0.008ms returns 0
T3824 000:360.052 JLINK_WriteReg(PSP, 0x20008000)
T3824 000:360.061 - 0.008ms returns 0
T3824 000:360.070 JLINK_WriteReg(CFBP, 0x00000000)
T3824 000:360.078 - 0.008ms returns 0
T3824 000:360.087 JLINK_SetBPEx(Addr = 0x20000000, Type = 0xFFFFFFF2)
T3824 000:360.096 - 0.009ms returns 0x00000004
T3824 000:360.105 JLINK_Go()
T3824 000:360.118   CPU_WriteMem(4 bytes @ 0xE0002028)
T3824 000:360.884   CPU_WriteMem(4 bytes @ 0xE000202C)
T3824 000:361.548   CPU_WriteMem(4 bytes @ 0xE0002030)
T3824 000:362.123   CPU_WriteMem(4 bytes @ 0xE0002034)
T3824 000:362.622   CPU_WriteMem(4 bytes @ 0xE0002038)
T3824 000:363.172   CPU_WriteMem(4 bytes @ 0xE000203C)
T3824 000:363.734   CPU_ReadMem(4 bytes @ 0xE0001000)
T3824 000:367.957 - 7.850ms 
T3824 000:367.995 JLINK_IsHalted()
T3824 000:371.842   CPU_ReadMem(2 bytes @ 0x20000000)
T3824 000:372.422 - 4.426ms returns TRUE
T3824 000:372.436 JLINK_ReadReg(R15 (PC))
T3824 000:372.446 - 0.010ms returns 0x20000000
T3824 000:372.455 JLINK_ClrBPEx(BPHandle = 0x00000004)
T3824 000:372.464 - 0.009ms returns 0x00
T3824 000:372.499 JLINK_ReadReg(R0)
T3824 000:372.509 - 0.010ms returns 0x00000001
T3824 000:372.519 JLINK_HasError()
T3824 000:372.528 JLINK_WriteReg(R0, 0x01001000)
T3824 000:372.537 - 0.009ms returns 0
T3824 000:372.546 JLINK_WriteReg(R1, 0x00001000)
T3824 000:372.554 - 0.007ms returns 0
T3824 000:372.563 JLINK_WriteReg(R2, 0x000000FF)
T3824 000:372.571 - 0.008ms returns 0
T3824 000:372.579 JLINK_WriteReg(R3, 0x00000000)
T3824 000:372.588 - 0.008ms returns 0
T3824 000:372.596 JLINK_WriteReg(R4, 0x00000000)
T3824 000:372.608 - 0.011ms returns 0
T3824 000:372.619 JLINK_WriteReg(R5, 0x00000000)
T3824 000:372.627 - 0.007ms returns 0
T3824 000:372.636 JLINK_WriteReg(R6, 0x00000000)
T3824 000:372.644 - 0.008ms returns 0
T3824 000:372.653 JLINK_WriteReg(R7, 0x00000000)
T3824 000:372.661 - 0.008ms returns 0
T3824 000:372.670 JLINK_WriteReg(R8, 0x00000000)
T3824 000:372.678 - 0.008ms returns 0
T3824 000:372.687 JLINK_WriteReg(R9, 0x20000E98)
T3824 000:372.695 - 0.007ms returns 0
T3824 000:372.704 JLINK_WriteReg(R10, 0x00000000)
T3824 000:372.712 - 0.008ms returns 0
T3824 000:372.720 JLINK_WriteReg(R11, 0x00000000)
T3824 000:372.729 - 0.008ms returns 0
T3824 000:372.737 JLINK_WriteReg(R12, 0x00000000)
T3824 000:372.746 - 0.008ms returns 0
T3824 000:372.754 JLINK_WriteReg(R13 (SP), 0x20008000)
T3824 000:372.762 - 0.008ms returns 0
T3824 000:372.772 JLINK_WriteReg(R14, 0x20000001)
T3824 000:372.780 - 0.008ms returns 0
T3824 000:372.788 JLINK_WriteReg(R15 (PC), 0x20000094)
T3824 000:372.797 - 0.008ms returns 0
T3824 000:372.806 JLINK_WriteReg(XPSR, 0x01000000)
T3824 000:372.814 - 0.008ms returns 0
T3824 000:372.822 JLINK_WriteReg(MSP, 0x20008000)
T3824 000:372.830 - 0.008ms returns 0
T3824 000:372.840 JLINK_WriteReg(PSP, 0x20008000)
T3824 000:372.848 - 0.008ms returns 0
T3824 000:372.856 JLINK_WriteReg(CFBP, 0x00000000)
T3824 000:372.865 - 0.008ms returns 0
T3824 000:372.874 JLINK_SetBPEx(Addr = 0x20000000, Type = 0xFFFFFFF2)
T3824 000:372.883 - 0.009ms returns 0x00000005
T3824 000:372.891 JLINK_Go()
T3824 000:372.903   CPU_WriteMem(4 bytes @ 0xE0002028)
T3824 000:373.397   CPU_WriteMem(4 bytes @ 0xE000202C)
T3824 000:373.975   CPU_WriteMem(4 bytes @ 0xE0002030)
T3824 000:374.584   CPU_WriteMem(4 bytes @ 0xE0002034)
T3824 000:375.109   CPU_WriteMem(4 bytes @ 0xE0002038)
T3824 000:375.767   CPU_WriteMem(4 bytes @ 0xE000203C)
T3824 000:376.224   CPU_ReadMem(4 bytes @ 0xE0001000)
T3824 000:380.413 - 7.520ms 
T3824 000:380.450 JLINK_IsHalted()
T3824 000:381.020 - 0.569ms returns FALSE
T3824 000:381.032 JLINK_HasError()
T3824 000:386.460 JLINK_IsHalted()
T3824 000:387.015 - 0.554ms returns FALSE
T3824 000:387.032 JLINK_HasError()
T3824 000:392.385 JLINK_IsHalted()
T3824 000:396.188   CPU_ReadMem(2 bytes @ 0x20000000)
T3824 000:396.655 - 4.270ms returns TRUE
T3824 000:396.668 JLINK_ReadReg(R15 (PC))
T3824 000:396.678 - 0.010ms returns 0x20000000
T3824 000:396.687 JLINK_ClrBPEx(BPHandle = 0x00000005)
T3824 000:396.695 - 0.008ms returns 0x00
T3824 000:396.705 JLINK_ReadReg(R0)
T3824 000:396.713 - 0.008ms returns 0x00000000
T3824 000:397.072 JLINK_HasError()
T3824 000:397.087 JLINK_WriteReg(R0, 0x01002000)
T3824 000:397.096 - 0.009ms returns 0
T3824 000:397.104 JLINK_WriteReg(R1, 0x00001000)
T3824 000:397.113 - 0.008ms returns 0
T3824 000:397.122 JLINK_WriteReg(R2, 0x000000FF)
T3824 000:397.130 - 0.008ms returns 0
T3824 000:397.139 JLINK_WriteReg(R3, 0x00000000)
T3824 000:397.146 - 0.007ms returns 0
T3824 000:397.155 JLINK_WriteReg(R4, 0x00000000)
T3824 000:397.164 - 0.008ms returns 0
T3824 000:397.172 JLINK_WriteReg(R5, 0x00000000)
T3824 000:397.181 - 0.008ms returns 0
T3824 000:397.189 JLINK_WriteReg(R6, 0x00000000)
T3824 000:397.198 - 0.008ms returns 0
T3824 000:397.206 JLINK_WriteReg(R7, 0x00000000)
T3824 000:397.214 - 0.007ms returns 0
T3824 000:397.223 JLINK_WriteReg(R8, 0x00000000)
T3824 000:397.231 - 0.008ms returns 0
T3824 000:397.239 JLINK_WriteReg(R9, 0x20000E98)
T3824 000:397.248 - 0.008ms returns 0
T3824 000:397.256 JLINK_WriteReg(R10, 0x00000000)
T3824 000:397.265 - 0.008ms returns 0
T3824 000:397.273 JLINK_WriteReg(R11, 0x00000000)
T3824 000:397.281 - 0.007ms returns 0
T3824 000:397.290 JLINK_WriteReg(R12, 0x00000000)
T3824 000:397.298 - 0.008ms returns 0
T3824 000:397.307 JLINK_WriteReg(R13 (SP), 0x20008000)
T3824 000:397.315 - 0.008ms returns 0
T3824 000:397.324 JLINK_WriteReg(R14, 0x20000001)
T3824 000:397.332 - 0.008ms returns 0
T3824 000:397.342 JLINK_WriteReg(R15 (PC), 0x20000020)
T3824 000:397.350 - 0.008ms returns 0
T3824 000:397.359 JLINK_WriteReg(XPSR, 0x01000000)
T3824 000:397.373 - 0.013ms returns 0
T3824 000:397.382 JLINK_WriteReg(MSP, 0x20008000)
T3824 000:397.390 - 0.008ms returns 0
T3824 000:397.399 JLINK_WriteReg(PSP, 0x20008000)
T3824 000:397.407 - 0.008ms returns 0
T3824 000:397.416 JLINK_WriteReg(CFBP, 0x00000000)
T3824 000:397.424 - 0.008ms returns 0
T3824 000:397.433 JLINK_SetBPEx(Addr = 0x20000000, Type = 0xFFFFFFF2)
T3824 000:397.442 - 0.009ms returns 0x00000006
T3824 000:397.451 JLINK_Go()
T3824 000:397.464   CPU_WriteMem(4 bytes @ 0xE0002028)
T3824 000:397.972   CPU_WriteMem(4 bytes @ 0xE000202C)
T3824 000:398.565   CPU_WriteMem(4 bytes @ 0xE0002030)
T3824 000:399.166   CPU_WriteMem(4 bytes @ 0xE0002034)
T3824 000:399.784   CPU_WriteMem(4 bytes @ 0xE0002038)
T3824 000:400.374   CPU_WriteMem(4 bytes @ 0xE000203C)
T3824 000:400.985   CPU_ReadMem(4 bytes @ 0xE0001000)
T3824 000:405.202 - 7.751ms 
T3824 000:405.222 JLINK_IsHalted()
T3824 000:409.067   CPU_ReadMem(2 bytes @ 0x20000000)
T3824 000:409.633 - 4.410ms returns TRUE
T3824 000:409.651 JLINK_ReadReg(R15 (PC))
T3824 000:409.661 - 0.009ms returns 0x20000000
T3824 000:409.670 JLINK_ClrBPEx(BPHandle = 0x00000006)
T3824 000:409.679 - 0.008ms returns 0x00
T3824 000:409.688 JLINK_ReadReg(R0)
T3824 000:409.697 - 0.008ms returns 0x00000001
T3824 000:409.707 JLINK_HasError()
T3824 000:409.717 JLINK_WriteReg(R0, 0x01002000)
T3824 000:409.725 - 0.008ms returns 0
T3824 000:409.734 JLINK_WriteReg(R1, 0x00001000)
T3824 000:409.743 - 0.008ms returns 0
T3824 000:409.752 JLINK_WriteReg(R2, 0x000000FF)
T3824 000:409.760 - 0.008ms returns 0
T3824 000:409.770 JLINK_WriteReg(R3, 0x00000000)
T3824 000:409.778 - 0.008ms returns 0
T3824 000:409.787 JLINK_WriteReg(R4, 0x00000000)
T3824 000:409.796 - 0.009ms returns 0
T3824 000:409.871 JLINK_WriteReg(R5, 0x00000000)
T3824 000:409.888 - 0.017ms returns 0
T3824 000:409.898 JLINK_WriteReg(R6, 0x00000000)
T3824 000:409.906 - 0.008ms returns 0
T3824 000:409.915 JLINK_WriteReg(R7, 0x00000000)
T3824 000:409.923 - 0.008ms returns 0
T3824 000:409.931 JLINK_WriteReg(R8, 0x00000000)
T3824 000:409.940 - 0.008ms returns 0
T3824 000:409.948 JLINK_WriteReg(R9, 0x20000E98)
T3824 000:409.957 - 0.008ms returns 0
T3824 000:409.965 JLINK_WriteReg(R10, 0x00000000)
T3824 000:409.973 - 0.008ms returns 0
T3824 000:409.982 JLINK_WriteReg(R11, 0x00000000)
T3824 000:409.991 - 0.008ms returns 0
T3824 000:409.999 JLINK_WriteReg(R12, 0x00000000)
T3824 000:410.008 - 0.008ms returns 0
T3824 000:410.016 JLINK_WriteReg(R13 (SP), 0x20008000)
T3824 000:410.025 - 0.009ms returns 0
T3824 000:410.034 JLINK_WriteReg(R14, 0x20000001)
T3824 000:410.042 - 0.007ms returns 0
T3824 000:410.051 JLINK_WriteReg(R15 (PC), 0x20000094)
T3824 000:410.059 - 0.008ms returns 0
T3824 000:410.067 JLINK_WriteReg(XPSR, 0x01000000)
T3824 000:410.076 - 0.008ms returns 0
T3824 000:410.085 JLINK_WriteReg(MSP, 0x20008000)
T3824 000:410.093 - 0.008ms returns 0
T3824 000:410.102 JLINK_WriteReg(PSP, 0x20008000)
T3824 000:410.110 - 0.007ms returns 0
T3824 000:410.119 JLINK_WriteReg(CFBP, 0x00000000)
T3824 000:410.127 - 0.008ms returns 0
T3824 000:410.136 JLINK_SetBPEx(Addr = 0x20000000, Type = 0xFFFFFFF2)
T3824 000:410.146 - 0.009ms returns 0x00000007
T3824 000:410.154 JLINK_Go()
T3824 000:410.168   CPU_WriteMem(4 bytes @ 0xE0002028)
T3824 000:410.624   CPU_WriteMem(4 bytes @ 0xE000202C)
T3824 000:411.231   CPU_WriteMem(4 bytes @ 0xE0002030)
T3824 000:411.771   CPU_WriteMem(4 bytes @ 0xE0002034)
T3824 000:412.369   CPU_WriteMem(4 bytes @ 0xE0002038)
T3824 000:412.903   CPU_WriteMem(4 bytes @ 0xE000203C)
T3824 000:413.515   CPU_ReadMem(4 bytes @ 0xE0001000)
T3824 000:417.669 - 7.498ms 
T3824 000:417.681 JLINK_IsHalted()
T3824 000:418.199 - 0.517ms returns FALSE
T3824 000:418.211 JLINK_HasError()
T3824 000:425.271 JLINK_IsHalted()
T3824 000:425.758 - 0.486ms returns FALSE
T3824 000:425.771 JLINK_HasError()
T3824 000:427.293 JLINK_IsHalted()
T3824 000:431.181   CPU_ReadMem(2 bytes @ 0x20000000)
T3824 000:431.767 - 4.475ms returns TRUE
T3824 000:431.825 JLINK_ReadReg(R15 (PC))
T3824 000:431.839 - 0.013ms returns 0x20000000
T3824 000:431.848 JLINK_ClrBPEx(BPHandle = 0x00000007)
T3824 000:431.857 - 0.009ms returns 0x00
T3824 000:431.866 JLINK_ReadReg(R0)
T3824 000:431.874 - 0.008ms returns 0x00000000
T3824 000:432.227 JLINK_HasError()
T3824 000:432.241 JLINK_WriteReg(R0, 0x01003000)
T3824 000:432.252 - 0.010ms returns 0
T3824 000:432.261 JLINK_WriteReg(R1, 0x00001000)
T3824 000:432.269 - 0.008ms returns 0
T3824 000:432.278 JLINK_WriteReg(R2, 0x000000FF)
T3824 000:432.286 - 0.008ms returns 0
T3824 000:432.295 JLINK_WriteReg(R3, 0x00000000)
T3824 000:432.303 - 0.008ms returns 0
T3824 000:432.312 JLINK_WriteReg(R4, 0x00000000)
T3824 000:432.321 - 0.008ms returns 0
T3824 000:432.329 JLINK_WriteReg(R5, 0x00000000)
T3824 000:432.337 - 0.007ms returns 0
T3824 000:432.346 JLINK_WriteReg(R6, 0x00000000)
T3824 000:432.354 - 0.008ms returns 0
T3824 000:432.362 JLINK_WriteReg(R7, 0x00000000)
T3824 000:432.371 - 0.008ms returns 0
T3824 000:432.380 JLINK_WriteReg(R8, 0x00000000)
T3824 000:432.388 - 0.008ms returns 0
T3824 000:432.396 JLINK_WriteReg(R9, 0x20000E98)
T3824 000:432.404 - 0.007ms returns 0
T3824 000:432.413 JLINK_WriteReg(R10, 0x00000000)
T3824 000:432.422 - 0.008ms returns 0
T3824 000:432.430 JLINK_WriteReg(R11, 0x00000000)
T3824 000:432.438 - 0.008ms returns 0
T3824 000:432.447 JLINK_WriteReg(R12, 0x00000000)
T3824 000:432.456 - 0.008ms returns 0
T3824 000:432.464 JLINK_WriteReg(R13 (SP), 0x20008000)
T3824 000:432.472 - 0.008ms returns 0
T3824 000:432.481 JLINK_WriteReg(R14, 0x20000001)
T3824 000:432.490 - 0.008ms returns 0
T3824 000:432.498 JLINK_WriteReg(R15 (PC), 0x20000020)
T3824 000:432.507 - 0.008ms returns 0
T3824 000:432.515 JLINK_WriteReg(XPSR, 0x01000000)
T3824 000:432.524 - 0.008ms returns 0
T3824 000:432.533 JLINK_WriteReg(MSP, 0x20008000)
T3824 000:432.540 - 0.007ms returns 0
T3824 000:432.549 JLINK_WriteReg(PSP, 0x20008000)
T3824 000:432.558 - 0.008ms returns 0
T3824 000:432.566 JLINK_WriteReg(CFBP, 0x00000000)
T3824 000:432.575 - 0.008ms returns 0
T3824 000:432.584 JLINK_SetBPEx(Addr = 0x20000000, Type = 0xFFFFFFF2)
T3824 000:432.593 - 0.009ms returns 0x00000008
T3824 000:432.601 JLINK_Go()
T3824 000:432.614   CPU_WriteMem(4 bytes @ 0xE0002028)
T3824 000:433.274   CPU_WriteMem(4 bytes @ 0xE000202C)
T3824 000:433.884   CPU_WriteMem(4 bytes @ 0xE0002030)
T3824 000:434.577   CPU_WriteMem(4 bytes @ 0xE0002034)
T3824 000:435.129   CPU_WriteMem(4 bytes @ 0xE0002038)
T3824 000:435.670   CPU_WriteMem(4 bytes @ 0xE000203C)
T3824 000:436.231   CPU_ReadMem(4 bytes @ 0xE0001000)
T3824 000:440.654 - 8.052ms 
T3824 000:440.674 JLINK_IsHalted()
T3824 000:444.488   CPU_ReadMem(2 bytes @ 0x20000000)
T3824 000:444.974 - 4.299ms returns TRUE
T3824 000:444.989 JLINK_ReadReg(R15 (PC))
T3824 000:445.000 - 0.011ms returns 0x20000000
T3824 000:445.010 JLINK_ClrBPEx(BPHandle = 0x00000008)
T3824 000:445.019 - 0.009ms returns 0x00
T3824 000:445.029 JLINK_ReadReg(R0)
T3824 000:445.037 - 0.008ms returns 0x00000001
T3824 000:445.047 JLINK_HasError()
T3824 000:445.057 JLINK_WriteReg(R0, 0x01003000)
T3824 000:445.067 - 0.009ms returns 0
T3824 000:445.076 JLINK_WriteReg(R1, 0x00001000)
T3824 000:445.085 - 0.008ms returns 0
T3824 000:445.094 JLINK_WriteReg(R2, 0x000000FF)
T3824 000:445.102 - 0.008ms returns 0
T3824 000:445.112 JLINK_WriteReg(R3, 0x00000000)
T3824 000:445.120 - 0.008ms returns 0
T3824 000:445.130 JLINK_WriteReg(R4, 0x00000000)
T3824 000:445.138 - 0.008ms returns 0
T3824 000:445.148 JLINK_WriteReg(R5, 0x00000000)
T3824 000:445.156 - 0.008ms returns 0
T3824 000:445.165 JLINK_WriteReg(R6, 0x00000000)
T3824 000:445.174 - 0.008ms returns 0
T3824 000:445.183 JLINK_WriteReg(R7, 0x00000000)
T3824 000:445.192 - 0.008ms returns 0
T3824 000:445.201 JLINK_WriteReg(R8, 0x00000000)
T3824 000:445.210 - 0.008ms returns 0
T3824 000:445.221 JLINK_WriteReg(R9, 0x20000E98)
T3824 000:445.229 - 0.008ms returns 0
T3824 000:445.238 JLINK_WriteReg(R10, 0x00000000)
T3824 000:445.247 - 0.008ms returns 0
T3824 000:445.259 JLINK_WriteReg(R11, 0x00000000)
T3824 000:445.269 - 0.010ms returns 0
T3824 000:445.279 JLINK_WriteReg(R12, 0x00000000)
T3824 000:445.287 - 0.008ms returns 0
T3824 000:445.297 JLINK_WriteReg(R13 (SP), 0x20008000)
T3824 000:445.306 - 0.008ms returns 0
T3824 000:445.315 JLINK_WriteReg(R14, 0x20000001)
T3824 000:445.323 - 0.008ms returns 0
T3824 000:445.333 JLINK_WriteReg(R15 (PC), 0x20000094)
T3824 000:445.341 - 0.008ms returns 0
T3824 000:445.351 JLINK_WriteReg(XPSR, 0x01000000)
T3824 000:445.359 - 0.008ms returns 0
T3824 000:445.369 JLINK_WriteReg(MSP, 0x20008000)
T3824 000:445.377 - 0.008ms returns 0
T3824 000:445.387 JLINK_WriteReg(PSP, 0x20008000)
T3824 000:445.395 - 0.008ms returns 0
T3824 000:445.404 JLINK_WriteReg(CFBP, 0x00000000)
T3824 000:445.413 - 0.008ms returns 0
T3824 000:445.423 JLINK_SetBPEx(Addr = 0x20000000, Type = 0xFFFFFFF2)
T3824 000:445.432 - 0.009ms returns 0x00000009
T3824 000:445.441 JLINK_Go()
T3824 000:445.454   CPU_WriteMem(4 bytes @ 0xE0002028)
T3824 000:445.906   CPU_WriteMem(4 bytes @ 0xE000202C)
T3824 000:446.544   CPU_WriteMem(4 bytes @ 0xE0002030)
T3824 000:447.029   CPU_WriteMem(4 bytes @ 0xE0002034)
T3824 000:447.609   CPU_WriteMem(4 bytes @ 0xE0002038)
T3824 000:448.256   CPU_WriteMem(4 bytes @ 0xE000203C)
T3824 000:448.720   CPU_ReadMem(4 bytes @ 0xE0001000)
T3824 000:452.988 - 7.546ms 
T3824 000:453.006 JLINK_IsHalted()
T3824 000:453.516 - 0.509ms returns FALSE
T3824 000:453.534 JLINK_HasError()
T3824 000:457.295 JLINK_IsHalted()
T3824 000:457.848 - 0.552ms returns FALSE
T3824 000:457.862 JLINK_HasError()
T3824 000:463.283 JLINK_IsHalted()
T3824 000:467.080   CPU_ReadMem(2 bytes @ 0x20000000)
T3824 000:467.606 - 4.322ms returns TRUE
T3824 000:467.624 JLINK_ReadReg(R15 (PC))
T3824 000:467.635 - 0.011ms returns 0x20000000
T3824 000:467.644 JLINK_ClrBPEx(BPHandle = 0x00000009)
T3824 000:467.653 - 0.008ms returns 0x00
T3824 000:467.662 JLINK_ReadReg(R0)
T3824 000:467.671 - 0.008ms returns 0x00000000
T3824 000:468.032 JLINK_HasError()
T3824 000:468.048 JLINK_WriteReg(R0, 0x01004000)
T3824 000:468.057 - 0.009ms returns 0
T3824 000:468.066 JLINK_WriteReg(R1, 0x00001000)
T3824 000:468.075 - 0.009ms returns 0
T3824 000:468.084 JLINK_WriteReg(R2, 0x000000FF)
T3824 000:468.093 - 0.008ms returns 0
T3824 000:468.102 JLINK_WriteReg(R3, 0x00000000)
T3824 000:468.110 - 0.008ms returns 0
T3824 000:468.119 JLINK_WriteReg(R4, 0x00000000)
T3824 000:468.127 - 0.008ms returns 0
T3824 000:468.136 JLINK_WriteReg(R5, 0x00000000)
T3824 000:468.144 - 0.008ms returns 0
T3824 000:468.153 JLINK_WriteReg(R6, 0x00000000)
T3824 000:468.161 - 0.008ms returns 0
T3824 000:468.170 JLINK_WriteReg(R7, 0x00000000)
T3824 000:468.178 - 0.007ms returns 0
T3824 000:468.186 JLINK_WriteReg(R8, 0x00000000)
T3824 000:468.195 - 0.008ms returns 0
T3824 000:468.204 JLINK_WriteReg(R9, 0x20000E98)
T3824 000:468.213 - 0.009ms returns 0
T3824 000:468.222 JLINK_WriteReg(R10, 0x00000000)
T3824 000:468.231 - 0.008ms returns 0
T3824 000:468.239 JLINK_WriteReg(R11, 0x00000000)
T3824 000:468.247 - 0.007ms returns 0
T3824 000:468.256 JLINK_WriteReg(R12, 0x00000000)
T3824 000:468.265 - 0.008ms returns 0
T3824 000:468.274 JLINK_WriteReg(R13 (SP), 0x20008000)
T3824 000:468.283 - 0.009ms returns 0
T3824 000:468.292 JLINK_WriteReg(R14, 0x20000001)
T3824 000:468.301 - 0.009ms returns 0
T3824 000:468.310 JLINK_WriteReg(R15 (PC), 0x20000020)
T3824 000:468.318 - 0.008ms returns 0
T3824 000:468.327 JLINK_WriteReg(XPSR, 0x01000000)
T3824 000:468.336 - 0.009ms returns 0
T3824 000:468.345 JLINK_WriteReg(MSP, 0x20008000)
T3824 000:468.354 - 0.009ms returns 0
T3824 000:468.363 JLINK_WriteReg(PSP, 0x20008000)
T3824 000:468.371 - 0.008ms returns 0
T3824 000:468.380 JLINK_WriteReg(CFBP, 0x00000000)
T3824 000:468.388 - 0.007ms returns 0
T3824 000:468.397 JLINK_SetBPEx(Addr = 0x20000000, Type = 0xFFFFFFF2)
T3824 000:468.406 - 0.009ms returns 0x0000000A
T3824 000:468.415 JLINK_Go()
T3824 000:468.429   CPU_WriteMem(4 bytes @ 0xE0002028)
T3824 000:469.058   CPU_WriteMem(4 bytes @ 0xE000202C)
T3824 000:469.612   CPU_WriteMem(4 bytes @ 0xE0002030)
T3824 000:470.155   CPU_WriteMem(4 bytes @ 0xE0002034)
T3824 000:470.862   CPU_WriteMem(4 bytes @ 0xE0002038)
T3824 000:471.425   CPU_WriteMem(4 bytes @ 0xE000203C)
T3824 000:472.032   CPU_ReadMem(4 bytes @ 0xE0001000)
T3824 000:476.155 - 7.739ms 
T3824 000:476.171 JLINK_IsHalted()
T3824 000:480.110   CPU_ReadMem(2 bytes @ 0x20000000)
T3824 000:480.683 - 4.511ms returns TRUE
T3824 000:480.697 JLINK_ReadReg(R15 (PC))
T3824 000:480.707 - 0.010ms returns 0x20000000
T3824 000:480.716 JLINK_ClrBPEx(BPHandle = 0x0000000A)
T3824 000:480.725 - 0.008ms returns 0x00
T3824 000:480.735 JLINK_ReadReg(R0)
T3824 000:480.743 - 0.008ms returns 0x00000001
T3824 000:480.753 JLINK_HasError()
T3824 000:480.762 JLINK_WriteReg(R0, 0x01004000)
T3824 000:480.772 - 0.009ms returns 0
T3824 000:480.780 JLINK_WriteReg(R1, 0x00001000)
T3824 000:480.788 - 0.008ms returns 0
T3824 000:480.798 JLINK_WriteReg(R2, 0x000000FF)
T3824 000:480.807 - 0.008ms returns 0
T3824 000:480.816 JLINK_WriteReg(R3, 0x00000000)
T3824 000:480.824 - 0.008ms returns 0
T3824 000:480.833 JLINK_WriteReg(R4, 0x00000000)
T3824 000:480.842 - 0.008ms returns 0
T3824 000:480.850 JLINK_WriteReg(R5, 0x00000000)
T3824 000:480.858 - 0.008ms returns 0
T3824 000:480.868 JLINK_WriteReg(R6, 0x00000000)
T3824 000:480.876 - 0.008ms returns 0
T3824 000:480.885 JLINK_WriteReg(R7, 0x00000000)
T3824 000:480.893 - 0.008ms returns 0
T3824 000:480.902 JLINK_WriteReg(R8, 0x00000000)
T3824 000:480.910 - 0.008ms returns 0
T3824 000:480.920 JLINK_WriteReg(R9, 0x20000E98)
T3824 000:480.928 - 0.008ms returns 0
T3824 000:480.937 JLINK_WriteReg(R10, 0x00000000)
T3824 000:480.945 - 0.008ms returns 0
T3824 000:480.954 JLINK_WriteReg(R11, 0x00000000)
T3824 000:480.962 - 0.008ms returns 0
T3824 000:480.971 JLINK_WriteReg(R12, 0x00000000)
T3824 000:480.980 - 0.008ms returns 0
T3824 000:480.989 JLINK_WriteReg(R13 (SP), 0x20008000)
T3824 000:480.997 - 0.008ms returns 0
T3824 000:481.060 JLINK_WriteReg(R14, 0x20000001)
T3824 000:481.078 - 0.018ms returns 0
T3824 000:481.088 JLINK_WriteReg(R15 (PC), 0x20000094)
T3824 000:481.096 - 0.008ms returns 0
T3824 000:481.105 JLINK_WriteReg(XPSR, 0x01000000)
T3824 000:481.114 - 0.008ms returns 0
T3824 000:481.123 JLINK_WriteReg(MSP, 0x20008000)
T3824 000:481.131 - 0.008ms returns 0
T3824 000:481.140 JLINK_WriteReg(PSP, 0x20008000)
T3824 000:481.148 - 0.008ms returns 0
T3824 000:481.159 JLINK_WriteReg(CFBP, 0x00000000)
T3824 000:481.167 - 0.008ms returns 0
T3824 000:481.176 JLINK_SetBPEx(Addr = 0x20000000, Type = 0xFFFFFFF2)
T3824 000:481.186 - 0.009ms returns 0x0000000B
T3824 000:481.194 JLINK_Go()
T3824 000:481.207   CPU_WriteMem(4 bytes @ 0xE0002028)
T3824 000:481.800   CPU_WriteMem(4 bytes @ 0xE000202C)
T3824 000:482.273   CPU_WriteMem(4 bytes @ 0xE0002030)
T3824 000:482.904   CPU_WriteMem(4 bytes @ 0xE0002034)
T3824 000:483.397   CPU_WriteMem(4 bytes @ 0xE0002038)
T3824 000:484.039   CPU_WriteMem(4 bytes @ 0xE000203C)
T3824 000:484.642   CPU_ReadMem(4 bytes @ 0xE0001000)
T3824 000:488.723 - 7.528ms 
T3824 000:488.746 JLINK_IsHalted()
T3824 000:489.235 - 0.488ms returns FALSE
T3824 000:489.247 JLINK_HasError()
T3824 000:493.983 JLINK_IsHalted()
T3824 000:494.494 - 0.511ms returns FALSE
T3824 000:494.507 JLINK_HasError()
T3824 000:495.971 JLINK_IsHalted()
T3824 000:496.568 - 0.598ms returns FALSE
T3824 000:496.580 JLINK_HasError()
T3824 000:497.985 JLINK_IsHalted()
T3824 000:501.876   CPU_ReadMem(2 bytes @ 0x20000000)
T3824 000:502.496 - 4.511ms returns TRUE
T3824 000:502.510 JLINK_ReadReg(R15 (PC))
T3824 000:502.521 - 0.010ms returns 0x20000000
T3824 000:502.529 JLINK_ClrBPEx(BPHandle = 0x0000000B)
T3824 000:502.539 - 0.009ms returns 0x00
T3824 000:502.547 JLINK_ReadReg(R0)
T3824 000:502.556 - 0.008ms returns 0x00000000
T3824 000:502.925 JLINK_HasError()
T3824 000:502.940 JLINK_WriteReg(R0, 0x01005000)
T3824 000:502.950 - 0.009ms returns 0
T3824 000:502.959 JLINK_WriteReg(R1, 0x00001000)
T3824 000:502.967 - 0.008ms returns 0
T3824 000:502.982 JLINK_WriteReg(R2, 0x000000FF)
T3824 000:502.991 - 0.008ms returns 0
T3824 000:503.000 JLINK_WriteReg(R3, 0x00000000)
T3824 000:503.008 - 0.008ms returns 0
T3824 000:503.017 JLINK_WriteReg(R4, 0x00000000)
T3824 000:503.025 - 0.008ms returns 0
T3824 000:503.034 JLINK_WriteReg(R5, 0x00000000)
T3824 000:503.042 - 0.008ms returns 0
T3824 000:503.050 JLINK_WriteReg(R6, 0x00000000)
T3824 000:503.059 - 0.008ms returns 0
T3824 000:503.068 JLINK_WriteReg(R7, 0x00000000)
T3824 000:503.076 - 0.008ms returns 0
T3824 000:503.085 JLINK_WriteReg(R8, 0x00000000)
T3824 000:503.092 - 0.008ms returns 0
T3824 000:503.101 JLINK_WriteReg(R9, 0x20000E98)
T3824 000:503.110 - 0.008ms returns 0
T3824 000:503.118 JLINK_WriteReg(R10, 0x00000000)
T3824 000:503.128 - 0.009ms returns 0
T3824 000:503.138 JLINK_WriteReg(R11, 0x00000000)
T3824 000:503.150 - 0.012ms returns 0
T3824 000:503.162 JLINK_WriteReg(R12, 0x00000000)
T3824 000:503.171 - 0.009ms returns 0
T3824 000:503.180 JLINK_WriteReg(R13 (SP), 0x20008000)
T3824 000:503.192 - 0.011ms returns 0
T3824 000:503.201 JLINK_WriteReg(R14, 0x20000001)
T3824 000:503.210 - 0.009ms returns 0
T3824 000:503.222 JLINK_WriteReg(R15 (PC), 0x20000020)
T3824 000:503.234 - 0.012ms returns 0
T3824 000:503.247 JLINK_WriteReg(XPSR, 0x01000000)
T3824 000:503.260 - 0.013ms returns 0
T3824 000:503.272 JLINK_WriteReg(MSP, 0x20008000)
T3824 000:503.283 - 0.011ms returns 0
T3824 000:503.295 JLINK_WriteReg(PSP, 0x20008000)
T3824 000:503.306 - 0.011ms returns 0
T3824 000:503.318 JLINK_WriteReg(CFBP, 0x00000000)
T3824 000:503.329 - 0.011ms returns 0
T3824 000:503.342 JLINK_SetBPEx(Addr = 0x20000000, Type = 0xFFFFFFF2)
T3824 000:503.355 - 0.013ms returns 0x0000000C
T3824 000:503.368 JLINK_Go()
T3824 000:503.386   CPU_WriteMem(4 bytes @ 0xE0002028)
T3824 000:504.004   CPU_WriteMem(4 bytes @ 0xE000202C)
T3824 000:504.494   CPU_WriteMem(4 bytes @ 0xE0002030)
T3824 000:505.042   CPU_WriteMem(4 bytes @ 0xE0002034)
T3824 000:505.624   CPU_WriteMem(4 bytes @ 0xE0002038)
T3824 000:506.187   CPU_WriteMem(4 bytes @ 0xE000203C)
T3824 000:506.723   CPU_ReadMem(4 bytes @ 0xE0001000)
T3824 000:511.007 - 7.639ms 
T3824 000:511.025 JLINK_IsHalted()
T3824 000:514.853   CPU_ReadMem(2 bytes @ 0x20000000)
T3824 000:515.397 - 4.371ms returns TRUE
T3824 000:515.415 JLINK_ReadReg(R15 (PC))
T3824 000:515.426 - 0.010ms returns 0x20000000
T3824 000:515.436 JLINK_ClrBPEx(BPHandle = 0x0000000C)
T3824 000:515.444 - 0.008ms returns 0x00
T3824 000:515.455 JLINK_ReadReg(R0)
T3824 000:515.463 - 0.008ms returns 0x00000001
T3824 000:515.473 JLINK_HasError()
T3824 000:515.483 JLINK_WriteReg(R0, 0x01005000)
T3824 000:515.493 - 0.009ms returns 0
T3824 000:515.502 JLINK_WriteReg(R1, 0x00001000)
T3824 000:515.511 - 0.008ms returns 0
T3824 000:515.520 JLINK_WriteReg(R2, 0x000000FF)
T3824 000:515.529 - 0.008ms returns 0
T3824 000:515.538 JLINK_WriteReg(R3, 0x00000000)
T3824 000:515.546 - 0.008ms returns 0
T3824 000:515.556 JLINK_WriteReg(R4, 0x00000000)
T3824 000:515.565 - 0.008ms returns 0
T3824 000:515.574 JLINK_WriteReg(R5, 0x00000000)
T3824 000:515.583 - 0.008ms returns 0
T3824 000:515.592 JLINK_WriteReg(R6, 0x00000000)
T3824 000:515.601 - 0.008ms returns 0
T3824 000:515.610 JLINK_WriteReg(R7, 0x00000000)
T3824 000:515.619 - 0.008ms returns 0
T3824 000:515.629 JLINK_WriteReg(R8, 0x00000000)
T3824 000:515.637 - 0.008ms returns 0
T3824 000:515.647 JLINK_WriteReg(R9, 0x20000E98)
T3824 000:515.655 - 0.008ms returns 0
T3824 000:515.665 JLINK_WriteReg(R10, 0x00000000)
T3824 000:515.674 - 0.009ms returns 0
T3824 000:515.684 JLINK_WriteReg(R11, 0x00000000)
T3824 000:515.692 - 0.008ms returns 0
T3824 000:515.702 JLINK_WriteReg(R12, 0x00000000)
T3824 000:515.710 - 0.008ms returns 0
T3824 000:515.720 JLINK_WriteReg(R13 (SP), 0x20008000)
T3824 000:515.729 - 0.008ms returns 0
T3824 000:515.738 JLINK_WriteReg(R14, 0x20000001)
T3824 000:515.747 - 0.008ms returns 0
T3824 000:515.757 JLINK_WriteReg(R15 (PC), 0x20000094)
T3824 000:515.765 - 0.008ms returns 0
T3824 000:515.777 JLINK_WriteReg(XPSR, 0x01000000)
T3824 000:515.788 - 0.011ms returns 0
T3824 000:515.798 JLINK_WriteReg(MSP, 0x20008000)
T3824 000:515.807 - 0.008ms returns 0
T3824 000:515.816 JLINK_WriteReg(PSP, 0x20008000)
T3824 000:515.824 - 0.008ms returns 0
T3824 000:515.834 JLINK_WriteReg(CFBP, 0x00000000)
T3824 000:515.842 - 0.008ms returns 0
T3824 000:515.853 JLINK_SetBPEx(Addr = 0x20000000, Type = 0xFFFFFFF2)
T3824 000:515.861 - 0.009ms returns 0x0000000D
T3824 000:515.871 JLINK_Go()
T3824 000:515.883   CPU_WriteMem(4 bytes @ 0xE0002028)
T3824 000:516.546   CPU_WriteMem(4 bytes @ 0xE000202C)
T3824 000:517.014   CPU_WriteMem(4 bytes @ 0xE0002030)
T3824 000:517.689   CPU_WriteMem(4 bytes @ 0xE0002034)
T3824 000:518.165   CPU_WriteMem(4 bytes @ 0xE0002038)
T3824 000:518.763   CPU_WriteMem(4 bytes @ 0xE000203C)
T3824 000:519.285   CPU_ReadMem(4 bytes @ 0xE0001000)
T3824 000:523.526 - 7.652ms 
T3824 000:523.569 JLINK_IsHalted()
T3824 000:524.020 - 0.450ms returns FALSE
T3824 000:524.033 JLINK_HasError()
T3824 000:529.065 JLINK_IsHalted()
T3824 000:529.661 - 0.596ms returns FALSE
T3824 000:529.678 JLINK_HasError()
T3824 000:531.111 JLINK_IsHalted()
T3824 000:531.679 - 0.567ms returns FALSE
T3824 000:531.696 JLINK_HasError()
T3824 000:534.105 JLINK_IsHalted()
T3824 000:537.991   CPU_ReadMem(2 bytes @ 0x20000000)
T3824 000:538.733 - 4.627ms returns TRUE
T3824 000:538.747 JLINK_ReadReg(R15 (PC))
T3824 000:538.757 - 0.010ms returns 0x20000000
T3824 000:538.767 JLINK_ClrBPEx(BPHandle = 0x0000000D)
T3824 000:538.776 - 0.009ms returns 0x00
T3824 000:538.786 JLINK_ReadReg(R0)
T3824 000:538.794 - 0.008ms returns 0x00000000
T3824 000:539.166 JLINK_HasError()
T3824 000:539.181 JLINK_WriteReg(R0, 0x01006000)
T3824 000:539.190 - 0.009ms returns 0
T3824 000:539.199 JLINK_WriteReg(R1, 0x00001000)
T3824 000:539.207 - 0.008ms returns 0
